time	V(a1)	V(b1)	V(c)	V(cin)	V(w1)	V(w2)	V(w3)	V(w4)
0.000000000000000e+000	0.000000e+000	0.000000e+000	0.000000e+000	1.000000e+000	0.000000e+000	0.000000e+000	0.000000e+000	0.000000e+000
2.031250029288501e-010	2.234375e-021	2.234375e-021	2.234375e-021	1.000000e+000	2.234375e-021	2.234375e-021	2.234375e-021	2.234375e-021
4.062500058577001e-010	4.468750e-021	4.468750e-021	-6.159566e-009	1.000000e+000	-6.093645e-009	-6.093645e-009	4.468750e-021	4.468750e-021
8.125000117154002e-010	8.937500e-021	8.937500e-021	-3.219716e-008	1.000000e+000	-3.174686e-008	-3.174686e-008	8.937500e-021	8.937500e-021
1.000000000000000e-009	1.100000e-020	1.100000e-020	-4.010013e-008	1.000000e+000	-3.936194e-008	-3.936194e-008	1.100000e-020	1.100000e-020
5.000000000000000e-005	5.500000e-016	5.500000e-016	-4.009998e-008	1.000000e+000	-3.936179e-008	-3.936179e-008	5.500000e-016	5.500000e-016
5.000010000000000e-005	5.500011e-016	5.500011e-016	-3.818708e-008	1.000000e+000	-3.788220e-008	-3.788220e-008	5.500011e-016	5.500011e-016
5.000030000000000e-005	5.500033e-016	5.500033e-016	-3.577446e-008	1.000000e+000	-3.582807e-008	-3.582807e-008	-5.899189e-009	-5.899189e-009
5.000070000000000e-005	5.500077e-016	5.500077e-016	-3.375490e-008	1.000000e+000	-3.363020e-008	-3.363020e-008	-2.894398e-008	-2.894398e-008
5.000100000000000e-005	5.500110e-016	5.500110e-016	-3.325584e-008	1.000000e+000	-3.282601e-008	-3.282601e-008	-3.936245e-008	-3.936245e-008
1.000000000000000e-004	1.100000e-015	1.100000e-015	-3.325584e-008	1.000000e+000	-3.282601e-008	-3.282601e-008	-3.936230e-008	-3.936230e-008
1.000001000000000e-004	1.100001e-015	1.100001e-015	-3.325584e-008	1.000000e+000	-3.282601e-008	-3.282601e-008	-3.764928e-008	-3.789224e-008
1.000003000000000e-004	1.100003e-015	1.100003e-015	-3.325584e-008	1.000000e+000	-3.282601e-008	-3.282601e-008	-3.548120e-008	-3.584321e-008
1.000007000000000e-004	1.100008e-015	8.319015e-010	-3.325584e-008	1.000000e+000	2.899697e-008	-3.282601e-008	-3.353111e-008	-3.349673e-008
1.000008229558715e-004	7.667928e-009	2.700136e-008	-3.325584e-008	1.000000e+000	3.725815e-007	-3.282601e-008	-3.333875e-008	-3.315907e-008
1.000008939481762e-004	4.488427e-008	1.159182e-007	-3.325584e-008	1.000000e+000	1.230611e-006	-3.282601e-008	-3.332653e-008	-3.312003e-008
1.000009298132730e-004	1.414988e-007	2.697053e-007	-3.325584e-008	1.000000e+000	2.391471e-006	-3.282601e-008	-3.114849e-008	-3.312003e-008
1.000009664784904e-004	3.732762e-007	5.758465e-007	-3.325584e-008	1.000000e+000	4.432897e-006	-3.282601e-008	1.012814e-008	-3.312003e-008
1.000009798376893e-004	5.221031e-007	7.472001e-007	-3.325584e-008	1.000000e+000	5.480874e-006	-3.282601e-008	1.798362e-007	-3.312003e-008
1.000010000000000e-004	8.548244e-007	1.098142e-006	-3.325584e-008	1.000000e+000	7.509019e-006	-3.282601e-008	1.142695e-006	-3.312003e-008
1.000234773177290e-004	4.728674e-004	4.731131e-004	-3.325584e-008	1.000000e+000	2.640482e-003	-3.282601e-008	2.634123e-003	-3.312003e-008
1.000459546354580e-004	9.444548e-004	9.447029e-004	-3.325584e-008	1.000000e+000	5.272112e-003	-3.282601e-008	5.265761e-003	-3.312003e-008
1.000684319531871e-004	1.415617e-003	1.415868e-003	-3.325584e-008	1.000000e+000	7.902398e-003	-3.282601e-008	7.896055e-003	-3.312003e-008
1.000909092709161e-004	1.886354e-003	1.886607e-003	-3.325584e-008	1.000000e+000	1.053134e-002	-3.282601e-008	1.052501e-002	-3.312003e-008
1.001133865886451e-004	2.356666e-003	2.356921e-003	-3.325584e-008	1.000000e+000	1.315894e-002	-3.282601e-008	1.315261e-002	-3.312003e-008
1.001358639063741e-004	2.826553e-003	2.826811e-003	-3.325584e-008	1.000000e+000	1.578520e-002	-3.282601e-008	1.577888e-002	-3.312003e-008
1.001583412241031e-004	3.296015e-003	3.296275e-003	-3.325584e-008	1.000000e+000	1.841011e-002	-3.282601e-008	1.840380e-002	-3.312003e-008
1.003156836486337e-004	6.525403e-003	6.525681e-003	-3.325584e-008	1.000000e+000	3.660454e-002	-3.282601e-008	3.659828e-002	-3.312003e-008
1.006303684976949e-004	1.275799e-002	1.275830e-002	-3.325584e-008	1.000000e+000	7.226983e-002	-3.282601e-008	7.226368e-002	-3.312003e-008
1.012597381958172e-004	2.457452e-002	2.457491e-002	-3.325584e-008	1.000000e+000	1.414987e-001	-3.282601e-008	1.414928e-001	-3.312003e-008
1.018945038208172e-004	3.565403e-002	3.565450e-002	-3.325584e-008	1.000000e+000	2.085552e-001	-3.282601e-008	2.085496e-001	-3.312003e-008
1.025292694458172e-004	4.575499e-002	4.575555e-002	-3.325584e-008	1.000000e+000	2.723086e-001	-3.282601e-008	2.723033e-001	-3.312003e-008
1.031640350708172e-004	5.483521e-002	5.483586e-002	-3.325584e-008	1.000000e+000	3.325060e-001	-3.282601e-008	3.325010e-001	-3.312003e-008
1.037988006958172e-004	6.286858e-002	6.286931e-002	-3.325584e-008	1.000000e+000	3.889275e-001	-3.282601e-008	3.889228e-001	-3.312003e-008
1.044335663208172e-004	6.987426e-002	6.987509e-002	-3.325584e-008	1.000000e+000	4.414864e-001	-3.282601e-008	4.414820e-001	-3.312003e-008
1.050683319458172e-004	7.585847e-002	7.585938e-002	-3.325584e-008	1.000000e+000	4.900040e-001	-3.282601e-008	4.900000e-001	-3.312003e-008
1.057030975708172e-004	8.083865e-002	8.083966e-002	-3.325584e-008	1.000000e+000	5.343264e-001	-3.282601e-008	5.343228e-001	-3.312003e-008
1.063378631958172e-004	8.490910e-002	8.491018e-002	-3.325584e-008	1.000000e+000	5.745954e-001	-3.282601e-008	5.745922e-001	-3.312003e-008
1.069726288208171e-004	8.816925e-002	8.817040e-002	-3.325584e-008	1.000000e+000	6.109539e-001	-3.282601e-008	6.109511e-001	-3.312003e-008
1.076073944458171e-004	9.069008e-002	9.069129e-002	-3.325584e-008	1.000000e+000	6.434096e-001	-3.282601e-008	6.434071e-001	-3.312003e-008
1.082421600708171e-004	9.256079e-002	9.256206e-002	-3.325584e-008	1.000000e+000	6.720554e-001	-3.282601e-008	6.720532e-001	-3.312003e-008
1.088769256958171e-004	9.389630e-002	9.389761e-002	-3.325584e-008	1.000000e+000	6.971536e-001	-3.282601e-008	6.971517e-001	-3.312003e-008
1.095116913208171e-004	9.481464e-002	9.481598e-002	-3.325584e-008	1.000000e+000	7.190454e-001	-3.282601e-008	7.190438e-001	-3.312003e-008
1.101464569458171e-004	9.541815e-002	9.541951e-002	-3.325584e-008	1.000000e+000	7.380587e-001	-3.282601e-008	7.380573e-001	-3.312003e-008
1.114159881958171e-004	9.601618e-002	9.601757e-002	-3.325584e-008	1.000000e+000	7.688161e-001	-3.282601e-008	7.688151e-001	-3.312003e-008
1.126855194458171e-004	9.619530e-002	9.619670e-002	-3.325584e-008	1.000000e+000	7.918961e-001	-3.282601e-008	7.918953e-001	-3.312003e-008
1.139550506958171e-004	9.622900e-002	9.623041e-002	-3.325584e-008	1.000000e+000	8.092953e-001	-3.282601e-008	8.092947e-001	-3.312003e-008
1.152245819458171e-004	9.622978e-002	9.623119e-002	-3.325584e-008	1.000000e+000	8.223347e-001	-3.282601e-008	8.223343e-001	-3.312003e-008
1.171288788208171e-004	9.622955e-002	9.623096e-002	-3.325584e-008	1.000000e+000	8.366159e-001	-3.282601e-008	8.366156e-001	-3.312003e-008
1.183984100708171e-004	9.622955e-002	9.623096e-002	-3.325584e-008	1.000000e+000	8.436198e-001	-3.282601e-008	8.436195e-001	-3.312003e-008
1.191238564993885e-004	9.622955e-002	9.623096e-002	-3.325584e-008	1.000000e+000	8.469015e-001	-3.282601e-008	8.469013e-001	-3.312003e-008
1.198493029279600e-004	9.622955e-002	9.623096e-002	-3.325584e-008	1.000000e+000	8.499215e-001	-3.282601e-008	8.499213e-001	-3.312003e-008
1.205747493565314e-004	9.622955e-002	9.623096e-002	-3.325584e-008	1.000000e+000	8.526797e-001	-3.282601e-008	8.526795e-001	-3.312003e-008
1.213001957851028e-004	9.622955e-002	9.623096e-002	-3.325584e-008	1.000000e+000	8.551761e-001	-3.282601e-008	8.551760e-001	-3.312003e-008
1.220256422136743e-004	9.622955e-002	9.623096e-002	-3.325584e-008	1.000000e+000	8.574108e-001	-3.282601e-008	8.574106e-001	-3.312003e-008
1.227510886422457e-004	9.622955e-002	9.623096e-002	-3.325584e-008	1.000000e+000	8.593836e-001	-3.282601e-008	8.593835e-001	-3.312003e-008
1.234765350708171e-004	9.622955e-002	9.623096e-002	-3.325584e-008	1.000000e+000	8.610947e-001	-3.282601e-008	8.610946e-001	-3.312003e-008
1.240206198922457e-004	9.622955e-002	9.623096e-002	-3.325584e-008	1.000000e+000	8.623314e-001	-3.282601e-008	8.623313e-001	-3.312003e-008
1.245647047136743e-004	9.622955e-002	9.623096e-002	-3.325584e-008	1.000000e+000	8.635129e-001	-3.282601e-008	8.635128e-001	-3.312003e-008
1.251087895351029e-004	9.622955e-002	9.623096e-002	-3.325584e-008	1.000000e+000	8.646392e-001	-3.282601e-008	8.646391e-001	-3.312003e-008
1.256528743565315e-004	9.622955e-002	9.623096e-002	-3.325584e-008	1.000000e+000	8.657103e-001	-3.282601e-008	8.657102e-001	-3.312003e-008
1.261969591779600e-004	9.622955e-002	9.623096e-002	-3.325584e-008	1.000000e+000	8.667262e-001	-3.282601e-008	8.667261e-001	-3.312003e-008
1.267410439993886e-004	9.622955e-002	9.623096e-002	-3.325584e-008	1.000000e+000	8.676869e-001	-3.282601e-008	8.676868e-001	-3.312003e-008
1.272851288208172e-004	9.622955e-002	9.623096e-002	-3.325584e-008	1.000000e+000	8.685924e-001	-3.282601e-008	8.685923e-001	-3.312003e-008
1.279198944458172e-004	9.622955e-002	9.623096e-002	-3.325584e-008	1.000000e+000	8.696208e-001	-3.282601e-008	8.696207e-001	-3.312003e-008
1.285546600708172e-004	9.622955e-002	9.623096e-002	-3.325584e-008	1.000000e+000	8.705912e-001	-3.282601e-008	8.705910e-001	-3.312003e-008
1.291894256958172e-004	9.622955e-002	9.623096e-002	-3.325584e-008	1.000000e+000	8.714980e-001	-3.282601e-008	8.714979e-001	-3.312003e-008
1.298241913208172e-004	9.622955e-002	9.623096e-002	-3.325584e-008	1.000000e+000	8.723469e-001	-3.282601e-008	8.723468e-001	-3.312003e-008
1.355370819458174e-004	9.622955e-002	9.623096e-002	-3.325584e-008	1.000000e+000	8.780998e-001	-3.282601e-008	8.780997e-001	-3.312003e-008
1.365345707851031e-004	9.622955e-002	9.623096e-002	-3.325584e-008	1.000000e+000	8.788834e-001	-3.282601e-008	8.788833e-001	-3.312003e-008
1.375320596243888e-004	9.622955e-002	9.623096e-002	-3.325584e-008	1.000000e+000	8.796265e-001	-3.282601e-008	8.796264e-001	-3.312003e-008
1.385295484636745e-004	9.622955e-002	9.623096e-002	-3.325584e-008	1.000000e+000	8.803293e-001	-3.282601e-008	8.803292e-001	-3.312002e-008
1.395270373029603e-004	9.622955e-002	9.623096e-002	-3.325584e-008	1.000000e+000	8.809916e-001	-3.282601e-008	8.809915e-001	-3.312002e-008
1.405245261422460e-004	9.622955e-002	9.623096e-002	-3.325584e-008	1.000000e+000	8.816136e-001	-3.282601e-008	8.816135e-001	-3.312002e-008
1.415220149815317e-004	9.622955e-002	9.623096e-002	-3.325584e-008	1.000000e+000	8.821951e-001	-3.282601e-008	8.821951e-001	-3.312002e-008
1.425195038208175e-004	9.622955e-002	9.623096e-002	-3.325584e-008	1.000000e+000	8.827363e-001	-3.282601e-008	8.827362e-001	-3.312002e-008
1.435169926601032e-004	9.622955e-002	9.623096e-002	-3.325584e-008	1.000000e+000	8.832388e-001	-3.282601e-008	8.832388e-001	-3.312002e-008
1.445144814993889e-004	9.622955e-002	9.623096e-002	-3.325584e-008	1.000000e+000	8.837173e-001	-3.282601e-008	8.837172e-001	-3.312002e-008
1.455119703386747e-004	9.622955e-002	9.623096e-002	-3.325584e-008	1.000000e+000	8.841716e-001	-3.282601e-008	8.841716e-001	-3.312002e-008
1.465094591779604e-004	9.622955e-002	9.623096e-002	-3.325584e-008	1.000000e+000	8.846019e-001	-3.282601e-008	8.846018e-001	-3.312002e-008
1.475069480172461e-004	9.622955e-002	9.623096e-002	-3.325584e-008	1.000000e+000	8.850080e-001	-3.282601e-008	8.850080e-001	-3.312002e-008
1.485044368565319e-004	9.622955e-002	9.623096e-002	-3.325584e-008	1.000000e+000	8.853901e-001	-3.282601e-008	8.853900e-001	-3.312002e-008
1.495019256958176e-004	9.622955e-002	9.623096e-002	-3.325584e-008	1.000000e+000	8.857480e-001	-3.282601e-008	8.857480e-001	-3.312002e-008
1.500000000000000e-004	9.622955e-002	9.623096e-002	-3.325584e-008	1.000000e+000	8.859279e-001	-3.282601e-008	8.859278e-001	-3.312002e-008
1.500001000000000e-004	9.622955e-002	9.623096e-002	-3.325584e-008	1.000000e+000	8.859279e-001	-3.282601e-008	8.859279e-001	-3.312002e-008
1.500003000000000e-004	9.622955e-002	9.623096e-002	-3.325584e-008	1.000000e+000	8.859279e-001	-3.282601e-008	8.859279e-001	-3.312002e-008
1.500007000000000e-004	9.622955e-002	9.623098e-002	-3.325584e-008	1.000000e+000	8.859279e-001	-3.282601e-008	8.859280e-001	-3.312002e-008
1.500010000000000e-004	9.622955e-002	9.623102e-002	-3.325584e-008	1.000000e+000	8.859279e-001	-3.282601e-008	8.859282e-001	-3.312002e-008
1.500946114285729e-004	9.622955e-002	9.637174e-002	-3.325584e-008	1.000000e+000	8.859279e-001	-3.282601e-008	8.859627e-001	-3.312002e-008
1.501882228571458e-004	9.622955e-002	9.651228e-002	-3.325584e-008	1.000000e+000	8.859279e-001	-3.282601e-008	8.859968e-001	-3.312002e-008
1.502818342857187e-004	9.622955e-002	9.665267e-002	-3.325584e-008	1.000000e+000	8.859279e-001	-3.282601e-008	8.860304e-001	-3.312002e-008
1.503754457142916e-004	9.622955e-002	9.679288e-002	-3.325584e-008	1.000000e+000	8.859279e-001	-3.282601e-008	8.860635e-001	-3.312002e-008
1.504690571428645e-004	9.622955e-002	9.693293e-002	-3.325584e-008	1.000000e+000	8.859279e-001	-3.282601e-008	8.860962e-001	-3.312002e-008
1.505626685714374e-004	9.622955e-002	9.707282e-002	-3.325584e-008	1.000000e+000	8.859279e-001	-3.282601e-008	8.861284e-001	-3.312002e-008
1.506562800000103e-004	9.622955e-002	9.721254e-002	-3.325584e-008	1.000000e+000	8.859279e-001	-3.282601e-008	8.861601e-001	-3.312002e-008
1.512003648214389e-004	9.622955e-002	9.803414e-002	-3.325584e-008	1.000000e+000	8.859279e-001	-3.282601e-008	8.863357e-001	-3.312002e-008
1.517444496428675e-004	9.622955e-002	9.885989e-002	-3.325584e-008	1.000000e+000	8.859279e-001	-3.282601e-008	8.865086e-001	-3.312002e-008
1.522885344642961e-004	9.622955e-002	9.968978e-002	-3.325584e-008	1.000000e+000	8.859279e-001	-3.282601e-008	8.866789e-001	-3.312002e-008
1.528326192857247e-004	9.622955e-002	1.005238e-001	-3.325584e-008	1.000000e+000	8.859279e-001	-3.282601e-008	8.868465e-001	-3.312002e-008
1.533767041071532e-004	9.622955e-002	1.013620e-001	-3.325584e-008	1.000000e+000	8.859279e-001	-3.282601e-008	8.870116e-001	-3.312002e-008
1.539207889285818e-004	9.622955e-002	1.022043e-001	-3.325584e-008	1.000000e+000	8.859279e-001	-3.282601e-008	8.871739e-001	-3.312002e-008
1.544648737500104e-004	9.622955e-002	1.030508e-001	-3.325584e-008	1.000000e+000	8.859279e-001	-3.282601e-008	8.873337e-001	-3.312002e-008
1.563691706250104e-004	9.622955e-002	1.059776e-001	-3.325584e-008	1.000000e+000	8.859279e-001	-3.282601e-008	8.879136e-001	-3.312002e-008
1.576387018750105e-004	9.622955e-002	1.079195e-001	-3.325584e-008	1.000000e+000	8.859279e-001	-3.282601e-008	8.882752e-001	-3.312002e-008
1.585455099107248e-004	9.622955e-002	1.093019e-001	-3.325584e-008	1.000000e+000	8.859279e-001	-3.282601e-008	8.885198e-001	-3.312002e-008
1.594523179464391e-004	9.622955e-002	1.106805e-001	-3.325584e-008	1.000000e+000	8.859279e-001	-3.282601e-008	8.887561e-001	-3.312002e-008
1.603591259821534e-004	9.622955e-002	1.120551e-001	-3.325584e-008	1.000000e+000	8.859279e-001	-3.282601e-008	8.889841e-001	-3.312002e-008
1.612659340178677e-004	9.622955e-002	1.134260e-001	-3.325584e-008	1.000000e+000	8.859279e-001	-3.282601e-008	8.892038e-001	-3.312002e-008
1.621727420535820e-004	9.622955e-002	1.147930e-001	-3.325584e-008	1.000000e+000	8.859279e-001	-3.282601e-008	8.894152e-001	-3.312002e-008
1.630795500892963e-004	9.622955e-002	1.161561e-001	-3.325584e-008	1.000000e+000	8.859279e-001	-3.282601e-008	8.896182e-001	-3.312002e-008
1.639863581250106e-004	9.622955e-002	1.175154e-001	-3.325584e-008	1.000000e+000	8.859279e-001	-3.282601e-008	8.898129e-001	-3.312002e-008
1.658906550000106e-004	9.622955e-002	1.203575e-001	-3.325584e-008	1.000000e+000	8.859279e-001	-3.282601e-008	8.902028e-001	-3.312002e-008
1.677949518750106e-004	9.622955e-002	1.231828e-001	-3.325584e-008	1.000000e+000	8.859279e-001	-3.282600e-008	8.905658e-001	-3.312002e-008
1.685203983035821e-004	9.622955e-002	1.242547e-001	-3.325584e-008	1.000000e+000	8.859279e-001	-3.282600e-008	8.906974e-001	-3.312002e-008
1.692458447321535e-004	9.622955e-002	1.253242e-001	-3.325584e-008	1.000000e+000	8.859279e-001	-3.282600e-008	8.908259e-001	-3.312002e-008
1.699712911607250e-004	9.622955e-002	1.263912e-001	-3.325584e-008	1.000000e+000	8.859279e-001	-3.282600e-008	8.909514e-001	-3.312002e-008
1.706967375892964e-004	9.622955e-002	1.274558e-001	-3.325584e-008	1.000000e+000	8.859279e-001	-3.282600e-008	8.910739e-001	-3.312002e-008
1.714221840178679e-004	9.622955e-002	1.285180e-001	-3.325584e-008	1.000000e+000	8.859279e-001	-3.282600e-008	8.911933e-001	-3.312002e-008
1.721476304464393e-004	9.622955e-002	1.295778e-001	-3.325584e-008	1.000000e+000	8.859279e-001	-3.282600e-008	8.913097e-001	-3.312002e-008
1.728730768750107e-004	9.622955e-002	1.306352e-001	-3.325584e-008	1.000000e+000	8.859279e-001	-3.282600e-008	8.914231e-001	-3.312002e-008
1.734171616964393e-004	9.622955e-002	1.314266e-001	-3.325584e-008	1.000000e+000	8.859279e-001	-3.282600e-008	8.915065e-001	-3.312002e-008
1.739612465178679e-004	9.622955e-002	1.322167e-001	-3.325584e-008	1.000000e+000	8.859279e-001	-3.282600e-008	8.915886e-001	-3.312002e-008
1.745053313392965e-004	9.622955e-002	1.330054e-001	-3.325584e-008	1.000000e+000	8.859279e-001	-3.282600e-008	8.916693e-001	-3.312002e-008
1.750494161607251e-004	9.622955e-002	1.337928e-001	-3.325584e-008	1.000000e+000	8.859279e-001	-3.282600e-008	8.917487e-001	-3.312002e-008
1.755935009821536e-004	9.622955e-002	1.345789e-001	-3.325584e-008	1.000000e+000	8.859279e-001	-3.282600e-008	8.918266e-001	-3.312002e-008
1.761375858035822e-004	9.622955e-002	1.353636e-001	-3.325584e-008	1.000000e+000	8.859279e-001	-3.282600e-008	8.919033e-001	-3.312002e-008
1.766816706250108e-004	9.622955e-002	1.361469e-001	-3.325584e-008	1.000000e+000	8.859279e-001	-3.282600e-008	8.919786e-001	-3.312002e-008
1.785859675000108e-004	9.622955e-002	1.388780e-001	-3.325584e-008	1.000000e+000	8.859279e-001	-3.282600e-008	8.922328e-001	-3.312002e-008
1.795834563392966e-004	9.622955e-002	1.403021e-001	-3.325584e-008	1.000000e+000	8.859279e-001	-3.282600e-008	8.923600e-001	-3.312002e-008
1.805809451785823e-004	9.622955e-002	1.417216e-001	-3.325584e-008	1.000000e+000	8.859279e-001	-3.282600e-008	8.924839e-001	-3.312002e-008
1.815784340178680e-004	9.622955e-002	1.431367e-001	-3.325584e-008	1.000000e+000	8.859279e-001	-3.282600e-008	8.926046e-001	-3.312002e-008
1.825759228571538e-004	9.622955e-002	1.445473e-001	-3.325584e-008	1.000000e+000	8.859279e-001	-3.282600e-008	8.927221e-001	-3.312002e-008
1.835734116964395e-004	9.622955e-002	1.459535e-001	-3.325584e-008	1.000000e+000	8.859279e-001	-3.282600e-008	8.928363e-001	-3.312002e-008
1.845709005357252e-004	9.622955e-002	1.473551e-001	-3.325584e-008	1.000000e+000	8.859279e-001	-3.282600e-008	8.929472e-001	-3.312002e-008
1.855683893750110e-004	9.622955e-002	1.487523e-001	-3.325584e-008	1.000000e+000	8.859279e-001	-3.282600e-008	8.930549e-001	-3.312002e-008
1.862031550000110e-004	9.622955e-002	1.496392e-001	-3.325584e-008	1.000000e+000	8.859279e-001	-3.282600e-008	8.931206e-001	-3.312002e-008
1.868379206250110e-004	9.622955e-002	1.505242e-001	-3.325584e-008	1.000000e+000	8.859279e-001	-3.282600e-008	8.931867e-001	-3.312002e-008
1.874726862500110e-004	9.622955e-002	1.514074e-001	-3.325584e-008	1.000000e+000	8.859279e-001	-3.282600e-008	8.932530e-001	-3.312002e-008
1.881074518750110e-004	9.622955e-002	1.522888e-001	-3.325584e-008	1.000000e+000	8.859279e-001	-3.282600e-008	8.933197e-001	-3.312002e-008
1.887422175000110e-004	9.622955e-002	1.531684e-001	-3.325584e-008	1.000000e+000	8.859279e-001	-3.282600e-008	8.933867e-001	-3.312002e-008
1.893769831250110e-004	9.622955e-002	1.540462e-001	-3.325584e-008	1.000000e+000	8.859279e-001	-3.282600e-008	8.934540e-001	-3.312002e-008
1.900117487500110e-004	9.622955e-002	1.549221e-001	-3.325584e-008	1.000000e+000	8.859279e-001	-3.282600e-008	8.935217e-001	-3.312002e-008
1.912812800000111e-004	9.622955e-002	1.566689e-001	-3.325584e-008	1.000000e+000	8.859279e-001	-3.282600e-008	8.936537e-001	-3.312002e-008
1.925508112500111e-004	9.622955e-002	1.584087e-001	-3.325584e-008	1.000000e+000	8.859279e-001	-3.282600e-008	8.937820e-001	-3.312002e-008
